Title: CKT8
Date: 
Plotname: Transient analysis
Flags: real
No. Variables: 5
No. Points: 301     
Command: version 4.3.18
Variables:
 0 time S
 1 V(7) V
 2 V(18) V
 3 V(29) V
 4 V(41) V
Values:
 0	0.000000000000000e+00
	0.000000000000000e+00
	0.000000000000000e+00
	0.000000000000000e+00
	0.000000000000000e+00
 1	5.000000000000000e-11
	-6.364845451655560e-20
	1.675870747769692e-21
	2.719383536624686e-21
	6.301124113215669e-20
 2	1.000000000000000e-10
	-6.553674593001358e-21
	-1.959835601111736e-21
	-6.571850564432583e-22
	-7.413105958092880e-22
 3	1.500000000000000e-10
	-3.923238263943193e-20
	2.295198810716467e-20
	4.356354570531061e-21
	-2.401877589501157e-21
 4	2.000000000000000e-10
	6.026280832392708e-20
	-1.548664647553415e-20
	-2.164562199574713e-21
	-1.338143555595301e-20
 5	2.500000000000000e-10
	4.830580276665190e-20
	-2.084861586110892e-20
	2.103818505971494e-21
	2.296747622092517e-20
 6	3.000000000000000e-10
	5.304477366393321e-20
	5.872655761125623e-21
	6.266053349936940e-22
	-5.259407030483376e-23
 7	3.500000000000000e-10
	-6.448674562104080e-20
	4.543748406412921e-21
	1.173490373609890e-21
	6.240033406619807e-20
 8	4.000000000000000e-10
	4.524394957907280e-21
	1.416842849010014e-21
	1.208980774584296e-21
	8.981910400985130e-22
 9	4.499999999999999e-10
	-9.870898043667342e-21
	-8.631460281598020e-21
	3.761636945685534e-21
	5.781115065535545e-21
 10	4.999999999999999e-10
	-7.434452208870098e-20
	-2.050261314991532e-20
	8.072542176510946e-21
	-2.865659289135424e-21
 11	5.500000000000000e-10
	-4.064030424860301e-20
	2.182157483685008e-20
	-1.216781587070479e-20
	-1.573251706468785e-20
 12	6.000000000000000e-10
	3.021225724522420e-20
	-1.656596447744407e-20
	-6.865099222199658e-21
	-1.085186789715099e-22
 13	6.500000000000000e-10
	-1.531030163858478e-20
	1.226264519517403e-20
	-6.413812747318666e-22
	4.424094103650211e-20
 14	7.000000000000001e-10
	4.297748438785108e-21
	-3.332815758504864e-21
	-2.308378269062743e-22
	-1.880767451191809e-21
 15	7.500000000000001e-10
	7.575309072936129e-21
	-5.634889279904426e-21
	-3.403255110453947e-22
	2.742823544168716e-23
 16	8.000000000000001e-10
	-1.643620274719412e-20
	1.172718356767103e-20
	-1.093470174470350e-21
	-5.461127242450195e-21
 17	8.500000000000002e-10
	3.243281268047519e-20
	-1.967792498302758e-20
	2.047042963239345e-21
	-6.275512409765006e-21
 18	9.000000000000002e-10
	-3.354924826250480e-20
	2.299871885803261e-20
	-2.200914953558228e-21
	-1.643017444906983e-20
 19	9.500000000000002e-10
	-7.026064701426742e-20
	-1.638251162603940e-20
	1.688797658970630e-21
	2.953215610328484e-21
 20	1.000000000000000e-09
	-1.418910597484545e-20
	9.568578383903975e-21
	3.411624577534330e-21
	-9.961112070494355e-22
 21	1.050000000000000e-09
	1.321534328138615e-21
	-8.522489485032779e-22
	-1.286645613248198e-21
	-1.823045675384010e-22
 22	1.100000000000000e-09
	1.335812649774733e-20
	-6.278131989682848e-21
	1.206047691604272e-22
	-1.817860053803678e-22
 23	1.150000000000000e-09
	-5.531825658609307e-20
	1.617127942549979e-20
	3.926312821798974e-21
	-1.627989664826004e-21
 24	1.200000000000000e-09
	-6.281734311072167e-20
	-2.226406876433547e-20
	-4.433699286235493e-21
	-1.819058389266998e-22
 25	1.250000000000000e-09
	-2.124451550625503e-20
	2.063896151969457e-20
	4.700169872493656e-21
	-1.818396247936513e-22
 26	1.300000000000000e-09
	9.771626353233242e-21
	-1.343816089613914e-20
	1.436364209732559e-21
	-2.095091472925849e-21
 27	1.350000000000001e-09
	-3.500439523749371e-22
	6.456095980826105e-21
	5.590214648355735e-21
	1.354357341467829e-21
 28	1.400000000000001e-09
	-1.073037964401491e-22
	1.821246215081128e-21
	-7.484608795486501e-23
	9.807135282907609e-22
 29	1.450000000000001e-09
	6.047789820642879e-21
	-8.958425461056137e-21
	-6.894670047091623e-21
	-3.413748595861575e-22
 30	1.500000000000001e-09
	-2.525628681766640e-20
	2.090152626296749e-20
	4.924091735673557e-21
	-1.789448895959840e-22
 31	1.550000000000001e-09
	1.211793812430086e-20
	-2.482254610014794e-20
	3.571503647594747e-21
	-1.792466242859980e-22
 32	1.600000000000001e-09
	-2.977327270945113e-20
	1.786081695503676e-20
	1.429975694120556e-20
	1.289423410412100e-21
 33	1.650000000000001e-09
	1.974083852452332e-20
	-1.020857886247074e-20
	6.784108487824403e-21
	-1.796614013589064e-22
 34	1.700000000000001e-09
	-2.735458608146689e-21
	1.992983391745411e-21
	-1.302081930648808e-21
	-1.280369111839364e-21
 35	1.750000000000001e-09
	1.609923119904928e-21
	3.680232495133665e-21
	-2.954177137111214e-21
	1.297704340642611e-21
 36	1.800000000000001e-09
	-2.053135249765292e-20
	-7.931419305867663e-21
	3.762239349165326e-21
	-2.033720490453018e-21
 37	1.850000000000001e-09
	-2.595968764255861e-20
	1.722838992229333e-20
	8.719462832401645e-21
	2.051403908554493e-21
 38	1.900000000000001e-09
	-1.820111173813995e-20
	-2.360774614796719e-20
	-3.145487967322838e-21
	-1.799200761763479e-22
 39	1.950000000000001e-09
	2.120079732297647e-20
	1.530007369703853e-20
	5.448363849951676e-21
	-4.870261415834420e-21
 40	2.000000000000001e-09
	4.933588905047876e-20
	1.175667043606672e-20
	4.384792610872593e-20
	4.168272447705624e-20
 41	2.050000000000001e-09
	4.133951534155588e-22
	4.477912524320788e-21
	3.097433694967908e-23
	4.668552713522092e-21
 42	2.100000000000001e-09
	-5.114386523677944e-20
	3.821838510417138e-21
	1.788604502531039e-21
	-1.859227316480176e-21
 43	2.150000000000001e-09
	-1.228038029884640e-21
	-3.485155438661129e-22
	-1.674391676703182e-21
	-1.475338889794769e-21
 44	2.200000000000001e-09
	-6.042038780254350e-22
	2.304723953760518e-21
	2.995299166669370e-22
	2.827794578190801e-22
 45	2.250000000000001e-09
	-3.175595810949689e-21
	3.007354137082907e-21
	-4.533154681917680e-22
	1.575354838425453e-21
 46	2.300000000000001e-09
	-2.974239428788942e-21
	-3.662788823761930e-21
	-8.486006746448226e-21
	-3.272454786333594e-21
 47	2.350000000000001e-09
	-4.148689221535855e-21
	-5.862592045061692e-22
	-1.509609050257459e-20
	3.580736749001229e-21
 48	2.400000000000001e-09
	-1.105840626037212e-20
	-4.532926092518255e-21
	2.640987246415429e-22
	-1.029622631561104e-20
 49	2.450000000000001e-09
	-1.878820776360357e-23
	2.956951827767502e-21
	-2.691120799297251e-21
	-6.375363236057464e-21
 50	2.500000000000001e-09
	-2.762766054321438e-21
	1.814313081982137e-21
	5.712047888367704e-22
	8.022972894263406e-22
 51	2.550000000000001e-09
	-7.894896870459246e-22
	-3.192641552277811e-22
	1.324715832842370e-21
	-3.306338409726316e-22
 52	2.600000000000001e-09
	6.341775884763580e-22
	-4.271804517927307e-22
	-2.166804956799841e-21
	2.112382905487902e-21
 53	2.650000000000001e-09
	-9.627277090700956e-21
	1.179858856801378e-21
	8.795361930614216e-21
	-3.196876616141090e-21
 54	2.700000000000001e-09
	1.814288813853021e-20
	-2.721384240922136e-21
	2.509397708525382e-21
	1.812726649388415e-20
 55	2.750000000000001e-09
	-1.395993463762355e-21
	-4.249585080423125e-21
	-3.549954684726713e-21
	-1.546790438082720e-20
 56	2.800000000000001e-09
	-2.531462855162880e-21
	2.361907439304596e-22
	-5.359119214006840e-22
	8.534064877185779e-22
 57	2.850000000000002e-09
	-8.921793939070718e-22
	6.010346353183735e-22
	-3.088965152178373e-20
	-9.561746605108692e-22
 58	2.900000000000002e-09
	-9.669860319079326e-23
	-4.674276700899243e-22
	-1.240059303211742e-21
	1.151587316993951e-21
 59	2.950000000000002e-09
	-4.933061706944285e-22
	1.334699280171564e-21
	-4.994585377577655e-21
	-2.936451523133740e-22
 60	3.000000000000002e-09
	6.816890053271401e-22
	-1.507709848111599e-22
	-1.153930595831524e-21
	3.430330444693355e-21
 61	3.050000000000002e-09
	8.108570491659374e-22
	7.928295604915923e-23
	1.893960205139837e-22
	-2.377128232451602e-21
 62	3.100000000000002e-09
	-1.343203090309180e-21
	-4.730532781888736e-22
	9.574745528588867e-22
	1.443001201664050e-21
 63	3.150000000000002e-09
	8.023373627410809e-21
	-1.427406061822740e-21
	-1.527364301586482e-21
	2.195189172254859e-21
 64	3.200000000000002e-09
	6.779726645162416e-22
	3.746122552047275e-21
	2.030002778324344e-22
	-5.839227850138979e-21
 65	3.250000000000002e-09
	6.773438654341355e-22
	-5.420602152510605e-21
	5.126195294817148e-21
	7.070420967983123e-21
 66	3.300000000000002e-09
	7.217298630503515e-21
	3.844590120620147e-21
	-1.423117790809122e-20
	8.692788408470803e-21
 67	3.350000000000002e-09
	-9.441622903421354e-23
	-3.308587635682505e-21
	-5.236148740705688e-21
	8.489211489291108e-21
 68	3.400000000000002e-09
	2.266632910247055e-21
	1.258536617760401e-22
	-4.982867820037982e-22
	5.718367446710933e-20
 69	3.450000000000002e-09
	1.972590455951577e-22
	-4.736056068923588e-22
	-2.814072704810127e-21
	-3.357955769169322e-21
 70	3.500000000000002e-09
	3.236905853946698e-21
	-1.680800935051371e-21
	6.390522163094318e-22
	-1.355511077371605e-21
 71	3.550000000000002e-09
	2.756113172388955e-21
	-4.736001904382557e-22
	-2.018776596103106e-20
	6.313963957481527e-21
 72	3.600000000000002e-09
	5.568975822219954e-21
	-4.733899604869221e-22
	-2.147950489833615e-21
	-1.439532004044522e-21
 73	3.650000000000002e-09
	6.780444763937587e-22
	1.080538929470620e-21
	-3.921900751494809e-21
	5.977547148702897e-21
 74	3.700000000000002e-09
	-2.286583767061640e-22
	-1.328526574126711e-21
	2.618268852193422e-22
	-2.215184893124734e-21
 75	3.750000000000002e-09
	-6.779026188447026e-22
	-4.734144992234609e-22
	-1.305247364441041e-21
	2.970507907992490e-20
 76	3.800000000000002e-09
	1.426265603138864e-21
	2.327051672587582e-22
	7.956765292386547e-23
	-4.274777232029646e-21
 77	3.850000000000001e-09
	3.771857246238890e-21
	9.861698340003943e-22
	-2.628305976041712e-21
	5.010399491238551e-20
 78	3.900000000000001e-09
	6.777058516457629e-22
	1.888392327339236e-21
	4.721333013172354e-21
	-8.504955552669454e-22
 79	3.950000000000001e-09
	7.211875370946420e-21
	-2.459171120228751e-22
	-1.759888959901148e-21
	8.603906080966710e-21
 80	4.000000000000000e-09
	-5.708885890720783e-21
	-3.132491560466329e-21
	5.084844182232473e-21
	-6.904309090714175e-20
 81	4.050000000000000e-09
	1.339703502652439e-20
	4.346759257346876e-21
	2.980133909510724e-22
	5.878095484501623e-20
 82	4.099999999999999e-09
	-8.101947288329484e-21
	-4.739500146674108e-22
	5.283591441873918e-21
	-7.099594191165697e-21
 83	4.149999999999999e-09
	4.507569517772571e-21
	4.292281205173115e-22
	2.120332676523110e-21
	2.471942053211993e-21
 84	4.199999999999999e-09
	-1.526380665518107e-21
	-4.741324431999624e-22
	1.657272110023577e-21
	-3.694371342815366e-21
 85	4.249999999999998e-09
	-4.171453309915068e-21
	-4.739696189457050e-22
	6.775099278597732e-22
	-8.531280277483678e-22
 86	4.299999999999998e-09
	6.430894475766253e-21
	8.830122488492986e-22
	-2.273909226812390e-22
	-1.132993806211882e-20
 87	4.349999999999998e-09
	-1.295534147239105e-20
	-2.584922444532546e-21
	5.430163819691560e-21
	2.371689843878905e-20
 88	4.399999999999997e-09
	1.439885600539144e-20
	-4.742198585980956e-22
	-3.927614518207772e-21
	-1.302768224471719e-22
 89	4.449999999999997e-09
	-5.275520656260989e-21
	-4.742028865656798e-22
	-1.043566485650890e-21
	9.607435499968256e-21
 90	4.499999999999996e-09
	4.126390822912097e-21
	1.765602732164385e-22
	-2.528983434170973e-21
	-3.654366256336443e-21
 91	4.549999999999996e-09
	5.419567320220859e-23
	-1.780993872116020e-21
	-1.029928984883284e-23
	3.250962831440921e-20
 92	4.599999999999996e-09
	-2.074948169514116e-21
	-4.743177513593626e-22
	5.311536692426374e-21
	-5.276398191612032e-21
 93	4.649999999999995e-09
	9.207116692749180e-21
	1.135459814453807e-21
	-1.166997038756934e-20
	-9.461162636035890e-21
 94	4.699999999999995e-09
	-1.434964122522754e-20
	-2.837324311652816e-21
	5.612685133880408e-21
	1.653361541489349e-20
 95	4.749999999999995e-09
	-4.002717176770321e-21
	1.733802200096680e-21
	-1.311125275417415e-20
	9.548527691043748e-21
 96	4.799999999999994e-09
	5.562547400239478e-21
	2.037119139998080e-22
	2.457231449124340e-21
	2.264119240042066e-20
 97	4.849999999999994e-09
	6.797177827666240e-22
	-4.757726814673099e-22
	-1.174911956147758e-21
	-1.712813630118891e-21
 98	4.899999999999993e-09
	-4.494763902831424e-22
	-1.206884435557124e-22
	-7.954128448418286e-22
	-6.349426284498136e-21
 99	4.949999999999993e-09
	1.854491869760542e-21
	-1.584410761215496e-21
	-1.196313037675337e-21
	-3.105532506508018e-22
 100	4.999999999999993e-09
	-9.188523288467439e-21
	-2.662133754861343e-21
	2.127632403510028e-21
	8.792094837651563e-22
 101	5.049999999999992e-09
	6.806518942495995e-22
	-1.581677784598897e-21
	-8.676034883253984e-22
	2.377258258149331e-21
 102	5.099999999999992e-09
	4.115793382554141e-22
	-8.793423182583619e-22
	-2.484089189868287e-21
	1.915446425949674e-22
 103	5.149999999999992e-09
	5.926331370950055e-21
	4.778838172415763e-22
	1.533820630199035e-21
	5.767964544944465e-21
 104	5.199999999999991e-09
	-1.199209401746611e-20
	-2.185121482766254e-21
	8.516888798467337e-21
	1.550933345318986e-20
 105	5.249999999999991e-09
	1.633358574388481e-20
	2.033842470068637e-21
	-2.512999877854147e-21
	1.318240925099290e-20
 106	5.299999999999990e-09
	1.179610936079777e-20
	1.681515392580357e-21
	9.384083939567703e-21
	4.860938819561689e-21
 107	5.349999999999990e-09
	4.457530896225676e-21
	2.033984431564969e-21
	7.235407758163364e-22
	3.068978258387374e-21
 108	5.399999999999990e-09
	-5.897073318624984e-22
	6.281803509927014e-22
	-1.056168858702175e-21
	5.883368294375673e-20
 109	5.449999999999989e-09
	-2.810240146176494e-22
	-4.774418115783043e-22
	1.692255041578937e-21
	1.611152750508289e-21
 110	5.499999999999989e-09
	-1.289449187818729e-21
	7.296976002373473e-22
	4.607322110009418e-21
	-9.671792322935668e-21
 111	5.549999999999988e-09
	-1.688571030911394e-21
	-2.438434556930316e-21
	-1.244267586295248e-20
	1.935195234099627e-20
 112	5.599999999999988e-09
	-4.210335420715133e-21
	1.829963944991212e-21
	1.336617976027978e-21
	-3.659212904838740e-21
 113	5.649999999999988e-09
	1.820912655330164e-21
	8.272271015832738e-25
	-1.989926350473535e-21
	5.686847961455692e-22
 114	5.699999999999987e-09
	-1.016482543395699e-21
	1.178249646462451e-21
	5.397072722677976e-22
	-6.224802986730988e-21
 115	5.749999999999987e-09
	6.807287112040262e-22
	7.542900261922971e-22
	-1.966074921699607e-21
	-1.947595229704925e-22
 116	5.799999999999987e-09
	1.429288347272840e-21
	-1.379961424796526e-21
	7.644156042309379e-22
	5.106860109881537e-21
 117	5.849999999999986e-09
	-2.970372048080639e-21
	-2.463127765388985e-21
	-7.152995017637376e-22
	-6.757281091526860e-21
 118	5.899999999999986e-09
	3.025409932076035e-21
	-4.773294763023809e-22
	-4.489498015356086e-21
	2.235177367149967e-20
 119	5.949999999999985e-09
	2.616843824408308e-21
	-4.777180613179700e-22
	-1.380224702280897e-21
	-1.333180783913926e-20
 120	5.999999999999985e-09
	9.695314759462578e-21
	1.428933755215439e-21
	-1.157660286126260e-21
	1.582589288106730e-20
 121	6.049999999999985e-09
	-5.007755160573501e-21
	2.033555305317407e-21
	2.234428284340067e-21
	-3.828253859827721e-21
 122	6.099999999999984e-09
	-2.065635685000879e-21
	8.808510624518304e-22
	2.276464077496523e-21
	5.060041880971196e-22
 123	6.149999999999984e-09
	6.970541590612689e-21
	-4.773943362261416e-22
	-3.408059385663235e-21
	5.051613262011801e-22
 124	6.199999999999984e-09
	-1.020885590026803e-20
	-8.766667129155449e-22
	2.960095519362875e-21
	2.648556850402933e-21
 125	6.249999999999983e-09
	1.897274675403380e-20
	-2.943357122170704e-21
	-1.737886028277863e-20
	1.228161504018575e-20
 126	6.299999999999983e-09
	-1.115813211407795e-20
	1.325082415049882e-21
	2.690213694077769e-21
	5.763952679872392e-22
 127	6.349999999999982e-09
	6.575780361519241e-21
	2.532587247139043e-22
	-1.513159837859562e-21
	2.656688931409936e-21
 128	6.399999999999982e-09
	-2.374122922350649e-21
	9.256905130813699e-22
	5.461979161931664e-23
	4.748169623011345e-22
 129	6.449999999999982e-09
	-3.805481317012133e-21
	1.006689152122259e-21
	6.443060481323288e-23
	1.119549695333941e-21
 130	6.499999999999981e-09
	-8.996141117543642e-21
	-4.776899358618292e-22
	-9.562430816851112e-22
	-9.765594792792839e-21
 131	6.549999999999981e-09
	1.288408990776431e-20
	-7.507638500231371e-22
	9.952189646791883e-22
	5.367400684156293e-20
 132	6.599999999999981e-09
	-1.640969572572569e-20
	-2.885148902098301e-21
	-2.375197694112318e-21
	2.532284178829131e-20
 133	6.649999999999980e-09
	1.002655495987541e-20
	-4.780570982690393e-22
	-6.460809294654798e-22
	-1.698060681968388e-21
 134	6.699999999999980e-09
	6.152485759050537e-22
	1.175484558820236e-21
	2.783604621755225e-21
	5.481561923892398e-23
 135	6.749999999999979e-09
	-6.739520609920803e-22
	2.032848792958645e-21
	3.693805211822441e-22
	-2.202015478178522e-23
 136	6.799999999999979e-09
	-4.039819351278520e-21
	1.843185429815668e-21
	-7.735194395867330e-21
	4.505975729013210e-20
 137	6.849999999999979e-09
	4.778488687496317e-21
	-1.941885163822060e-21
	5.848369596516063e-21
	-4.705480803245434e-21
 138	6.899999999999978e-09
	7.729151432199374e-21
	1.739398461278207e-21
	-7.195312917999004e-22
	3.435799877113010e-21
 139	6.949999999999978e-09
	-1.018892966941075e-20
	-2.529171791202020e-21
	-4.348382761324344e-21
	2.077300175602277e-21
 140	6.999999999999977e-09
	-1.060051019571929e-20
	-1.174960866634530e-21
	-1.761524524485334e-22
	-1.488299470894236e-21
 141	7.049999999999977e-09
	2.846995984346353e-21
	6.033410393572989e-22
	-2.329681455959345e-21
	1.490507916040649e-21
 142	7.099999999999977e-09
	4.186422817843768e-21
	-6.665660953404436e-23
	4.029076023404179e-22
	-1.255598176422871e-21
 143	7.149999999999976e-09
	-2.088459324512971e-20
	-6.828693427635464e-22
	-4.012533837709865e-21
	4.614352095407030e-21
 144	7.199999999999976e-09
	2.796229653469373e-20
	-2.221572601185667e-21
	1.090638603268952e-20
	-8.534193191064146e-22
 145	7.249999999999976e-09
	-4.044021841260053e-20
	-5.200860673223216e-22
	-1.860876204745475e-21
	-2.617419838822133e-20
 146	7.299999999999975e-09
	-2.108735457683919e-20
	1.634764807874086e-21
	-6.920075418055504e-21
	-2.349662357036133e-21
 147	7.349999999999975e-09
	-1.967371552795063e-20
	-3.034016408860089e-21
	9.412120511986448e-22
	1.627866646610918e-21
 148	7.399999999999974e-09
	7.778598159730840e-21
	5.852689591236709e-22
	4.644268230261235e-23
	3.075549639460993e-21
 149	7.449999999999974e-09
	7.875710722306409e-21
	3.246624803918550e-23
	7.487125183555979e-21
	2.942627382607197e-21
 150	7.499999999999975e-09
	-2.464212257869361e-20
	1.884245736989511e-21
	-8.943072696773556e-21
	-1.789386533034317e-23
 151	7.549999999999975e-09
	3.335771591642480e-20
	-5.486921234804980e-22
	-6.440760051255448e-21
	1.237576206360724e-20
 152	7.599999999999975e-09
	-3.513219174069654e-20
	-5.486002540756351e-22
	8.467933767824653e-21
	3.644021827611394e-21
 153	7.649999999999976e-09
	2.658503432963389e-20
	-5.186438282897791e-21
	-4.835426287828336e-22
	5.239974851050709e-21
 154	7.699999999999976e-09
	-1.333733621913729e-20
	2.436137106775862e-22
	-2.145028181894802e-22
	1.019135017668308e-22
 155	7.749999999999977e-09
	5.030769861749465e-23
	6.481960259819066e-22
	-3.021123119117899e-21
	-2.365325593717554e-21
 156	7.799999999999977e-09
	1.176402693698117e-20
	-3.653120164802097e-22
	-2.394441917557577e-21
	2.513417487234622e-21
 157	7.849999999999978e-09
	-2.989939954399503e-20
	3.840847603307355e-21
	-3.756728082036148e-21
